T8964 000:005.383   SEGGER J-Link V7.80c Log File
T8964 000:005.455   DLL Compiled: Sep 27 2022 16:01:16
T8964 000:005.459   Logging started @ 2023-03-24 01:11
T8964 000:005.463 - 5.465ms
T8964 000:005.470 JLINK_SetWarnOutHandler(...)
T8964 000:005.475 - 0.006ms
T8964 000:005.479 JLINK_OpenEx(...)
T8964 000:006.847   Firmware: J-Link STLink V21 compiled Aug 12 2019 10:29:20
T8964 000:007.273   Firmware: J-Link STLink V21 compiled Aug 12 2019 10:29:20
T8964 000:019.668   Hardware: V1.00
T8964 000:019.684   S/N: 779562686
T8964 000:019.691   OEM: SEGGER
T8964 000:019.698   Feature(s): None
T8964 000:021.339   TELNET listener socket opened on port 19021
T8964 000:021.432   WEBSRV WEBSRV_Init(): Starting webserver thread(s)
T8964 000:021.557   WEBSRV Webserver running on local port 19080
T8964 000:024.809 - 19.336ms returns "O.K."
T8964 000:024.829 JLINK_GetEmuCaps()
T8964 000:024.834 - 0.006ms returns 0x98EA5A33
T8964 000:024.842 JLINK_TIF_GetAvailable(...)
T8964 000:025.064 - 0.229ms
T8964 000:025.081 JLINK_SetErrorOutHandler(...)
T8964 000:025.086 - 0.007ms
T8964 000:025.104 JLINK_ExecCommand("ProjectFile = "C:\Dev\Demos\X-NUCLEO-IKS01A2\IKS01A2-sensor-read\MDK-ARM\JLinkSettings.ini"", ...). 
T8964 000:031.431   Ref file found at: C:\Keil_v5\ARM\Segger\JLinkDevices.ref
T8964 000:031.500   REF file references invalid XML file: C:\Program Files\SEGGER\JLink\JLinkDevices.xml
T8964 000:031.619 - 6.519ms returns 0x00
T8964 000:031.639 JLINK_ExecCommand("Device = STM32L476RGTx", ...). 
T8964 000:032.212   Device "STM32L476RG" selected.
T8964 000:032.367 - 0.725ms returns 0x00
T8964 000:032.375 JLINK_ExecCommand("DisableConnectionTimeout", ...). 
T8964 000:032.381 - 0.003ms returns 0x01
T8964 000:032.386 JLINK_GetHardwareVersion()
T8964 000:032.390 - 0.005ms returns 10000
T8964 000:032.394 JLINK_GetDLLVersion()
T8964 000:032.397 - 0.005ms returns 78003
T8964 000:032.402 JLINK_GetOEMString(...)
T8964 000:032.408 JLINK_GetFirmwareString(...)
T8964 000:032.412 - 0.005ms
T8964 000:032.425 JLINK_GetDLLVersion()
T8964 000:032.429 - 0.005ms returns 78003
T8964 000:032.433 JLINK_GetCompileDateTime()
T8964 000:032.437 - 0.005ms
T8964 000:032.443 JLINK_GetFirmwareString(...)
T8964 000:032.447 - 0.005ms
T8964 000:032.452 JLINK_GetHardwareVersion()
T8964 000:032.456 - 0.005ms returns 10000
T8964 000:032.462 JLINK_GetSN()
T8964 000:032.465 - 0.005ms returns 779562686
T8964 000:032.471 JLINK_GetOEMString(...)
T8964 000:032.478 JLINK_TIF_Select(JLINKARM_TIF_SWD)
T8964 000:033.463 - 0.990ms returns 0x00
T8964 000:033.474 JLINK_HasError()
T8964 000:033.484 JLINK_SetSpeed(5000)
T8964 000:033.837 - 0.356ms
T8964 000:033.844 JLINK_GetId()
T8964 000:035.151   Found SW-DP with ID 0x4BA01477
T8964 000:067.264   Found SW-DP with ID 0x4BA01477
T8964 000:069.451   Old FW that does not support reading DPIDR via DAP jobs
T8964 000:070.222   DPv0 detected
T8964 000:070.233   CoreSight SoC-400 or earlier
T8964 000:070.244   Scanning AP map to find all available APs
T8964 000:071.070   AP[1]: Stopped AP scan as end of AP map has been reached
T8964 000:071.082   AP[0]: AHB-AP (IDR: 0x24770011)
T8964 000:071.092   Iterating through AP map to find AHB-AP to use
T8964 000:072.009   AP[0]: Core found
T8964 000:072.021   AP[0]: AHB-AP ROM base: 0xE00FF000
T8964 000:072.565   CPUID register: 0x410FC241. Implementer code: 0x41 (ARM)
T8964 000:072.575   Found Cortex-M4 r0p1, Little endian.
T8964 000:173.920   -- Max. mem block: 0x00002AC8
T8964 000:174.235   CPU_ReadMem(4 bytes @ 0xE000EDF0)
T8964 000:174.723   CPU_ReadMem(4 bytes @ 0xE0002000)
T8964 000:175.079   FPUnit: 6 code (BP) slots and 2 literal slots
T8964 000:175.087   CPU_ReadMem(4 bytes @ 0xE000EDFC)
T8964 000:175.469   CPU_WriteMem(4 bytes @ 0xE000EDFC)
T8964 000:175.836   CPU_ReadMem(4 bytes @ 0xE0001000)
T8964 000:176.209   CPU_WriteMem(4 bytes @ 0xE0001000)
T8964 000:176.564   CPU_ReadMem(4 bytes @ 0xE000ED88)
T8964 000:176.932   CPU_WriteMem(4 bytes @ 0xE000ED88)
T8964 000:177.350   CPU_ReadMem(4 bytes @ 0xE000ED88)
T8964 000:177.713   CPU_WriteMem(4 bytes @ 0xE000ED88)
T8964 000:178.208   CoreSight components:
T8964 000:178.220   ROMTbl[0] @ E00FF000
T8964 000:178.227   CPU_ReadMem(64 bytes @ 0xE00FF000)
T8964 000:178.951   CPU_ReadMem(32 bytes @ 0xE000EFE0)
T8964 000:179.615   [0][0]: E000E000 CID B105E00D PID 000BB00C SCS-M7
T8964 000:179.623   CPU_ReadMem(32 bytes @ 0xE0001FE0)
T8964 000:180.245   [0][1]: E0001000 CID B105E00D PID 003BB002 DWT
T8964 000:180.256   CPU_ReadMem(32 bytes @ 0xE0002FE0)
T8964 000:180.864   [0][2]: E0002000 CID B105E00D PID 002BB003 FPB
T8964 000:180.880   CPU_ReadMem(32 bytes @ 0xE0000FE0)
T8964 000:181.496   [0][3]: E0000000 CID B105E00D PID 003BB001 ITM
T8964 000:181.506   CPU_ReadMem(32 bytes @ 0xE0040FE0)
T8964 000:182.110   [0][4]: E0040000 CID B105900D PID 000BB9A1 TPIU
T8964 000:182.120   CPU_ReadMem(32 bytes @ 0xE0041FE0)
T8964 000:182.726   [0][5]: E0041000 CID B105900D PID 000BB925 ETM
T8964 000:183.098 - 149.258ms returns 0x2BA01477
T8964 000:183.111 JLINK_GetDLLVersion()
T8964 000:183.115 - 0.007ms returns 78003
T8964 000:183.121 JLINK_CORE_GetFound()
T8964 000:183.126 - 0.006ms returns 0xE0000FF
T8964 000:183.166 JLINK_GetDebugInfo(0x100 = JLINKARM_ROM_TABLE_ADDR_INDEX)
T8964 000:183.175   Value=0xE00FF000
T8964 000:183.182 - 0.018ms returns 0
T8964 000:183.195 JLINK_GetDebugInfo(0x100 = JLINKARM_ROM_TABLE_ADDR_INDEX)
T8964 000:183.200   Value=0xE00FF000
T8964 000:183.207 - 0.014ms returns 0
T8964 000:183.212 JLINK_GetDebugInfo(0x101 = JLINKARM_DEBUG_INFO_ETM_ADDR_INDEX)
T8964 000:183.217   Value=0xE0041000
T8964 000:183.224 - 0.016ms returns 0
T8964 000:183.234 JLINK_ReadMemEx(0xE0041FD0, 0x20 Bytes, Flags = 0x02000004)
T8964 000:183.249   CPU_ReadMem(32 bytes @ 0xE0041FD0)
T8964 000:183.843   Data:  04 00 00 00 00 00 00 00 00 00 00 00 00 00 00 00 ...
T8964 000:183.853 - 0.622ms returns 32 (0x20)
T8964 000:183.861 JLINK_GetDebugInfo(0x102 = JLINKARM_DEBUG_INFO_MTB_ADDR_INDEX)
T8964 000:183.868   Value=0x00000000
T8964 000:183.874 - 0.015ms returns 0
T8964 000:183.880 JLINK_GetDebugInfo(0x103 = JLINKARM_DEBUG_INFO_TPIU_ADDR_INDEX)
T8964 000:183.885   Value=0xE0040000
T8964 000:183.891 - 0.013ms returns 0
T8964 000:183.897 JLINK_GetDebugInfo(0x104 = JLINKARM_DEBUG_INFO_ITM_ADDR_INDEX)
T8964 000:183.901   Value=0xE0000000
T8964 000:183.908 - 0.013ms returns 0
T8964 000:183.913 JLINK_GetDebugInfo(0x105 = JLINKARM_DEBUG_INFO_DWT_ADDR_INDEX)
T8964 000:183.918   Value=0xE0001000
T8964 000:183.924 - 0.013ms returns 0
T8964 000:183.929 JLINK_GetDebugInfo(0x106 = JLINKARM_DEBUG_INFO_FPB_ADDR_INDEX)
T8964 000:183.934   Value=0xE0002000
T8964 000:183.940 - 0.013ms returns 0
T8964 000:183.946 JLINK_GetDebugInfo(0x107 = JLINKARM_DEBUG_INFO_NVIC_ADDR_INDEX)
T8964 000:183.950   Value=0xE000E000
T8964 000:183.957 - 0.013ms returns 0
T8964 000:183.962 JLINK_GetDebugInfo(0x10C = JLINKARM_DEBUG_INFO_DBG_ADDR_INDEX)
T8964 000:183.967   Value=0xE000EDF0
T8964 000:183.973 - 0.013ms returns 0
T8964 000:183.979 JLINK_GetDebugInfo(0x01 = Unknown)
T8964 000:183.983   Value=0x00000001
T8964 000:183.990 - 0.013ms returns 0
T8964 000:183.995 JLINK_ReadMemU32(0xE000ED00, 0x1 Items)
T8964 000:184.006   CPU_ReadMem(4 bytes @ 0xE000ED00)
T8964 000:184.420   Data:  41 C2 0F 41
T8964 000:184.431   Debug reg: CPUID
T8964 000:184.436 - 0.443ms returns 1 (0x1)
T8964 000:184.443 JLINK_GetDebugInfo(0x10F = JLINKARM_DEBUG_INFO_HAS_CORTEX_M_SECURITY_EXT_INDEX)
T8964 000:184.447   Value=0x00000000
T8964 000:184.452 - 0.011ms returns 0
T8964 000:184.456 JLINK_HasError()
T8964 000:184.461 JLINK_SetResetType(JLINKARM_CM3_RESET_TYPE_NORMAL)
T8964 000:184.465 - 0.005ms returns JLINKARM_CM3_RESET_TYPE_NORMAL
T8964 000:184.470 JLINK_Reset()
T8964 000:184.479   CPU is running
T8964 000:184.486   CPU_WriteMem(4 bytes @ 0xE000EDF0)
T8964 000:184.805   CPU is running
T8964 000:184.812   CPU_WriteMem(4 bytes @ 0xE000EDFC)
T8964 000:185.215   Reset: Halt core after reset via DEMCR.VC_CORERESET.
T8964 000:185.708   Reset: Reset device via AIRCR.SYSRESETREQ.
T8964 000:185.716   CPU is running
T8964 000:185.725   CPU_WriteMem(4 bytes @ 0xE000ED0C)
T8964 000:238.448   CPU_ReadMem(4 bytes @ 0xE000EDF0)
T8964 000:238.817   CPU_ReadMem(4 bytes @ 0xE000EDF0)
T8964 000:239.194   CPU is running
T8964 000:239.203   CPU_WriteMem(4 bytes @ 0xE000EDF0)
T8964 000:239.564   CPU is running
T8964 000:239.571   CPU_WriteMem(4 bytes @ 0xE000EDFC)
T8964 000:245.097   CPU_ReadMem(4 bytes @ 0xE000EDF0)
T8964 000:248.579   CPU_WriteMem(4 bytes @ 0xE0002000)
T8964 000:248.966   CPU_ReadMem(4 bytes @ 0xE000EDFC)
T8964 000:249.435   CPU_ReadMem(4 bytes @ 0xE0001000)
T8964 000:249.803 - 65.337ms
T8964 000:249.817 JLINK_HasError()
T8964 000:249.823 JLINK_ReadReg(R15 (PC))
T8964 000:249.832 - 0.011ms returns 0x08000348
T8964 000:249.841 JLINK_ReadReg(XPSR)
T8964 000:249.847 - 0.007ms returns 0x01000000
T8964 000:249.880 JLINK_Halt()
T8964 000:249.886 - 0.008ms returns 0x00
T8964 000:249.892 JLINK_ReadMemU32(0xE000EDF0, 0x1 Items)
T8964 000:249.900   CPU_ReadMem(4 bytes @ 0xE000EDF0)
T8964 000:250.309   Data:  03 00 03 00
T8964 000:250.316   Debug reg: DHCSR
T8964 000:250.321 - 0.431ms returns 1 (0x1)
T8964 000:250.328 JLINK_WriteU32_64(0xE000EDF0, 0xA05F0003)
T8964 000:250.332   Debug reg: DHCSR
T8964 000:250.466   CPU_WriteMem(4 bytes @ 0xE000EDF0)
T8964 000:250.822 - 0.496ms returns 0 (0x00000000)
T8964 000:250.828 JLINK_WriteU32_64(0xE000EDFC, 0x01000000)
T8964 000:250.832   Debug reg: DEMCR
T8964 000:250.840   CPU_WriteMem(4 bytes @ 0xE000EDFC)
T8964 000:251.229 - 0.404ms returns 0 (0x00000000)
T8964 000:251.250 JLINK_GetHWStatus(...)
T8964 000:251.529 - 0.283ms returns 0
T8964 000:251.545 JLINK_GetNumBPUnits(Type = 0xFFFFFF00)
T8964 000:251.550 - 0.006ms returns 0x06
T8964 000:251.554 JLINK_GetNumBPUnits(Type = 0xF0)
T8964 000:251.558 - 0.005ms returns 0x2000
T8964 000:251.562 JLINK_GetNumWPUnits()
T8964 000:251.566 - 0.005ms returns 4
T8964 000:251.575 JLINK_GetSpeed()
T8964 000:251.578 - 0.005ms returns 4000
T8964 000:251.586 JLINK_ReadMemU32(0xE000E004, 0x1 Items)
T8964 000:251.592   CPU_ReadMem(4 bytes @ 0xE000E004)
T8964 000:251.951   Data:  02 00 00 00
T8964 000:251.958 - 0.373ms returns 1 (0x1)
T8964 000:251.963 JLINK_ReadMemU32(0xE000E004, 0x1 Items)
T8964 000:251.968   CPU_ReadMem(4 bytes @ 0xE000E004)
T8964 000:252.445   Data:  02 00 00 00
T8964 000:252.453 - 0.492ms returns 1 (0x1)
T8964 000:252.459 JLINK_WriteMemEx(0xE0001000, 0x0000001C Bytes, Flags = 0x02000004)
T8964 000:252.463   Data:  01 00 00 00 00 00 00 00 00 00 00 00 00 00 00 00 ...
T8964 000:252.472   CPU_WriteMem(28 bytes @ 0xE0001000)
T8964 000:253.055 - 0.599ms returns 0x1C
T8964 000:253.062 JLINK_HasError()
T8964 000:253.067 JLINK_ReadReg(R15 (PC))
T8964 000:253.072 - 0.007ms returns 0x08000348
T8964 000:253.077 JLINK_ReadReg(XPSR)
T8964 000:253.081 - 0.005ms returns 0x01000000
T8964 000:255.173 JLINK_ReadMemEx(0xE0001004, 0x4 Bytes, Flags = 0x02000000)
T8964 000:255.184   Data:  00 00 00 00
T8964 000:255.190   Debug reg: DWT_CYCCNT
T8964 000:255.195 - 0.024ms returns 4 (0x4)
T8964 000:351.057 JLINK_HasError()
T8964 000:351.072 JLINK_SetResetType(JLINKARM_CM3_RESET_TYPE_NORMAL)
T8964 000:351.077 - 0.008ms returns JLINKARM_CM3_RESET_TYPE_NORMAL
T8964 000:351.083 JLINK_Reset()
T8964 000:351.095   CPU_WriteMem(4 bytes @ 0xE000EDF0)
T8964 000:351.493   CPU_WriteMem(4 bytes @ 0xE000EDFC)
T8964 000:351.985   Reset: Halt core after reset via DEMCR.VC_CORERESET.
T8964 000:352.573   Reset: Reset device via AIRCR.SYSRESETREQ.
T8964 000:352.585   CPU_WriteMem(4 bytes @ 0xE000ED0C)
T8964 000:405.586   CPU_ReadMem(4 bytes @ 0xE000EDF0)
T8964 000:405.954   CPU_ReadMem(4 bytes @ 0xE000EDF0)
T8964 000:406.449   CPU_WriteMem(4 bytes @ 0xE000EDF0)
T8964 000:406.850   CPU_WriteMem(4 bytes @ 0xE000EDFC)
T8964 000:413.105   CPU_ReadMem(4 bytes @ 0xE000EDF0)
T8964 000:416.470   CPU_WriteMem(4 bytes @ 0xE0002000)
T8964 000:416.861   CPU_ReadMem(4 bytes @ 0xE000EDFC)
T8964 000:417.181   CPU_ReadMem(4 bytes @ 0xE0001000)
T8964 000:417.561 - 66.481ms
T8964 000:417.616 JLINK_HasError()
T8964 000:417.625 JLINK_ReadReg(R15 (PC))
T8964 000:417.636 - 0.014ms returns 0x08000348
T8964 000:417.642 JLINK_ReadReg(XPSR)
T8964 000:417.647 - 0.007ms returns 0x01000000
T8964 000:417.865 JLINK_ReadMemEx(0x08000348, 0x3C Bytes, Flags = 0x02000000)
T8964 000:417.878   CPU_ReadMem(128 bytes @ 0x08000340)
T8964 000:419.060    -- Updating C cache (128 bytes @ 0x08000340)
T8964 000:419.070    -- Read from C cache (60 bytes @ 0x08000348)
T8964 000:419.078   Data:  09 48 80 47 09 48 00 47 FE E7 FE E7 FE E7 FE E7 ...
T8964 000:419.085 - 1.222ms returns 60 (0x3C)
T8964 000:419.092 JLINK_ReadMemEx(0x08000348, 0x2 Bytes, Flags = 0x02000000)
T8964 000:419.101    -- Read from C cache (2 bytes @ 0x08000348)
T8964 000:419.108   Data:  09 48
T8964 000:419.115 - 0.025ms returns 2 (0x2)
T8964 000:419.161 JLINK_ReadMemEx(0x0800034A, 0x2 Bytes, Flags = 0x02000000)
T8964 000:419.168    -- Read from C cache (2 bytes @ 0x0800034A)
T8964 000:419.174   Data:  80 47
T8964 000:419.181 - 0.021ms returns 2 (0x2)
T8964 000:419.194 JLINK_ReadMemEx(0x0800034A, 0x2 Bytes, Flags = 0x02000000)
T8964 000:419.199    -- Read from C cache (2 bytes @ 0x0800034A)
T8964 000:419.206   Data:  80 47
T8964 000:419.212 - 0.020ms returns 2 (0x2)
T8964 000:419.218 JLINK_ReadMemEx(0x0800034C, 0x3C Bytes, Flags = 0x02000000)
T8964 000:419.223    -- Read from C cache (60 bytes @ 0x0800034C)
T8964 000:419.230   Data:  09 48 00 47 FE E7 FE E7 FE E7 FE E7 FE E7 FE E7 ...
T8964 000:419.237 - 0.021ms returns 60 (0x3C)
T8964 000:419.242 JLINK_ReadMemEx(0x0800034C, 0x2 Bytes, Flags = 0x02000000)
T8964 000:419.247    -- Read from C cache (2 bytes @ 0x0800034C)
T8964 000:419.254   Data:  09 48
T8964 000:419.260 - 0.020ms returns 2 (0x2)
T8964 000:972.105 JLINK_ReadMemEx(0x0800034C, 0x3C Bytes, Flags = 0x02000000)
T8964 000:972.130    -- Read from C cache (60 bytes @ 0x0800034C)
T8964 000:972.138   Data:  09 48 00 47 FE E7 FE E7 FE E7 FE E7 FE E7 FE E7 ...
T8964 000:972.143 - 0.040ms returns 60 (0x3C)
T8964 000:972.148 JLINK_ReadMemEx(0x0800034C, 0x2 Bytes, Flags = 0x02000000)
T8964 000:972.153    -- Read from C cache (2 bytes @ 0x0800034C)
T8964 000:972.158   Data:  09 48
T8964 000:972.164 - 0.017ms returns 2 (0x2)
T8964 000:972.169 JLINK_ReadMemEx(0x0800034E, 0x2 Bytes, Flags = 0x02000000)
T8964 000:972.173    -- Read from C cache (2 bytes @ 0x0800034E)
T8964 000:972.178   Data:  00 47
T8964 000:972.184 - 0.016ms returns 2 (0x2)
T8298 001:138.540 JLINK_ReadMemEx(0x08000348, 0x2 Bytes, Flags = 0x02000000)
T8298 001:138.560    -- Read from C cache (2 bytes @ 0x08000348)
T8298 001:138.569   Data:  09 48
T8298 001:138.576 - 0.038ms returns 2 (0x2)
T8298 001:138.583 JLINK_HasError()
T8298 001:138.590 JLINK_SetBPEx(Addr = 0x080068C0, Type = 0xFFFFFFF2)
T8298 001:138.598 - 0.011ms returns 0x00000001
T8298 001:138.604 JLINK_HasError()
T8298 001:138.609 JLINK_HasError()
T8298 001:138.615 JLINK_Go()
T8298 001:139.069   CPU_WriteMem(4 bytes @ 0xE0002000)
T8298 001:139.479   CPU_ReadMem(4 bytes @ 0xE0001000)
T8298 001:139.859   CPU_WriteMem(4 bytes @ 0xE0002008)
T8298 001:139.868   CPU_WriteMem(4 bytes @ 0xE000200C)
T8298 001:139.875   CPU_WriteMem(4 bytes @ 0xE0002010)
T8298 001:139.882   CPU_WriteMem(4 bytes @ 0xE0002014)
T8298 001:139.889   CPU_WriteMem(4 bytes @ 0xE0002018)
T8298 001:139.896   CPU_WriteMem(4 bytes @ 0xE000201C)
T8298 001:141.438   CPU_WriteMem(4 bytes @ 0xE0001004)
T8298 001:142.286 - 3.677ms
T8298 001:243.258 JLINK_HasError()
T8298 001:243.271 JLINK_IsHalted()
T8298 001:246.221 - 2.962ms returns TRUE
T8298 001:246.240 JLINK_HasError()
T8298 001:246.246 JLINK_Halt()
T8298 001:246.252 - 0.008ms returns 0x00
T8298 001:246.258 JLINK_IsHalted()
T8298 001:246.263 - 0.007ms returns TRUE
T8298 001:246.268 JLINK_IsHalted()
T8298 001:246.273 - 0.006ms returns TRUE
T8298 001:246.278 JLINK_IsHalted()
T8298 001:246.283 - 0.006ms returns TRUE
T8298 001:246.288 JLINK_HasError()
T8298 001:246.294 JLINK_ReadReg(R15 (PC))
T8298 001:246.301 - 0.009ms returns 0x080068C0
T8298 001:246.307 JLINK_ReadReg(XPSR)
T8298 001:246.312 - 0.046ms returns 0x21000000
T8298 001:246.363 JLINK_HasError()
T8298 001:246.369 JLINK_ClrBPEx(BPHandle = 0x00000001)
T8298 001:246.375 - 0.008ms returns 0x00
T8298 001:246.380 JLINK_HasError()
T8298 001:246.385 JLINK_HasError()
T8298 001:246.391 JLINK_ReadMemU32(0xE000ED30, 0x1 Items)
T8298 001:246.401   CPU_ReadMem(4 bytes @ 0xE000ED30)
T8298 001:246.826   Data:  02 00 00 00
T8298 001:246.836 - 0.447ms returns 1 (0x1)
T8298 001:246.843 JLINK_ReadMemU32(0xE0001028, 0x1 Items)
T8298 001:246.851   CPU_ReadMem(4 bytes @ 0xE0001028)
T8298 001:247.327   Data:  00 00 00 00
T8298 001:247.335   Debug reg: DWT_FUNC[0]
T8298 001:247.340 - 0.499ms returns 1 (0x1)
T8298 001:247.345 JLINK_ReadMemU32(0xE0001038, 0x1 Items)
T8298 001:247.351   CPU_ReadMem(4 bytes @ 0xE0001038)
T8298 001:247.811   Data:  00 02 00 00
T8298 001:247.819   Debug reg: DWT_FUNC[1]
T8298 001:247.824 - 0.480ms returns 1 (0x1)
T8298 001:247.829 JLINK_ReadMemU32(0xE0001048, 0x1 Items)
T8298 001:247.835   CPU_ReadMem(4 bytes @ 0xE0001048)
T8298 001:248.278   Data:  00 00 00 00
T8298 001:248.286   Debug reg: DWT_FUNC[2]
T8298 001:248.291 - 0.463ms returns 1 (0x1)
T8298 001:248.296 JLINK_ReadMemU32(0xE0001058, 0x1 Items)
T8298 001:248.302   CPU_ReadMem(4 bytes @ 0xE0001058)
T8298 001:248.688   Data:  00 00 00 00
T8298 001:248.702   Debug reg: DWT_FUNC[3]
T8298 001:248.710 - 0.416ms returns 1 (0x1)
T8298 001:248.744 JLINK_HasError()
T8298 001:248.751 JLINK_ReadReg(R0)
T8298 001:248.759 - 0.010ms returns 0x20001D18
T8298 001:248.765 JLINK_ReadReg(R1)
T8298 001:248.770 - 0.007ms returns 0x20001F18
T8298 001:248.776 JLINK_ReadReg(R2)
T8298 001:248.781 - 0.007ms returns 0x20001F18
T8298 001:248.786 JLINK_ReadReg(R3)
T8298 001:248.791 - 0.007ms returns 0x20001F18
T8298 001:248.796 JLINK_ReadReg(R4)
T8298 001:248.801 - 0.007ms returns 0x00000000
T8298 001:248.807 JLINK_ReadReg(R5)
T8298 001:248.812 - 0.007ms returns 0x20001CB8
T8298 001:248.817 JLINK_ReadReg(R6)
T8298 001:248.822 - 0.007ms returns 0x00000000
T8298 001:248.827 JLINK_ReadReg(R7)
T8298 001:248.832 - 0.007ms returns 0x00000000
T8298 001:248.837 JLINK_ReadReg(R8)
T8298 001:248.846 - 0.011ms returns 0x00000000
T8298 001:248.852 JLINK_ReadReg(R9)
T8298 001:248.856 - 0.007ms returns 0x00000000
T8298 001:248.862 JLINK_ReadReg(R10)
T8298 001:248.867 - 0.007ms returns 0x080089A0
T8298 001:248.872 JLINK_ReadReg(R11)
T8298 001:248.877 - 0.007ms returns 0x00000000
T8298 001:248.882 JLINK_ReadReg(R12)
T8298 001:248.887 - 0.007ms returns 0x20001CF8
T8298 001:248.892 JLINK_ReadReg(R13 (SP))
T8298 001:248.897 - 0.007ms returns 0x20002318
T8298 001:248.903 JLINK_ReadReg(R14)
T8298 001:248.907 - 0.007ms returns 0x08000257
T8298 001:248.913 JLINK_ReadReg(R15 (PC))
T8298 001:248.918 - 0.007ms returns 0x080068C0
T8298 001:248.923 JLINK_ReadReg(XPSR)
T8298 001:248.928 - 0.007ms returns 0x21000000
T8298 001:248.933 JLINK_ReadReg(MSP)
T8298 001:248.938 - 0.007ms returns 0x20002318
T8298 001:248.943 JLINK_ReadReg(PSP)
T8298 001:248.948 - 0.007ms returns 0x00000000
T8298 001:248.954 JLINK_ReadReg(CFBP)
T8298 001:248.958 - 0.007ms returns 0x04000000
T8298 001:248.964 JLINK_ReadReg(FPSCR)
T8298 001:253.538 - 4.581ms returns 0x03000000
T8298 001:253.550 JLINK_ReadReg(FPS0)
T8298 001:253.557 - 0.009ms returns 0x00000000
T8298 001:253.563 JLINK_ReadReg(FPS1)
T8298 001:253.568 - 0.007ms returns 0x00000000
T8298 001:253.573 JLINK_ReadReg(FPS2)
T8298 001:253.578 - 0.007ms returns 0x00000000
T8298 001:253.584 JLINK_ReadReg(FPS3)
T8298 001:253.588 - 0.007ms returns 0x00000000
T8298 001:253.594 JLINK_ReadReg(FPS4)
T8298 001:253.599 - 0.007ms returns 0x00000000
T8298 001:253.604 JLINK_ReadReg(FPS5)
T8298 001:253.609 - 0.007ms returns 0x00000000
T8298 001:253.614 JLINK_ReadReg(FPS6)
T8298 001:253.619 - 0.007ms returns 0x00000000
T8298 001:253.624 JLINK_ReadReg(FPS7)
T8298 001:253.629 - 0.007ms returns 0x00000000
T8298 001:253.634 JLINK_ReadReg(FPS8)
T8298 001:253.639 - 0.007ms returns 0x00000000
T8298 001:253.645 JLINK_ReadReg(FPS9)
T8298 001:253.649 - 0.038ms returns 0x00000000
T8298 001:253.689 JLINK_ReadReg(FPS10)
T8298 001:253.695 - 0.008ms returns 0x00000000
T8298 001:253.701 JLINK_ReadReg(FPS11)
T8298 001:253.705 - 0.007ms returns 0x00000000
T8298 001:253.711 JLINK_ReadReg(FPS12)
T8298 001:253.716 - 0.007ms returns 0x00000000
T8298 001:253.721 JLINK_ReadReg(FPS13)
T8298 001:253.726 - 0.007ms returns 0x00000000
T8298 001:253.731 JLINK_ReadReg(FPS14)
T8298 001:253.736 - 0.007ms returns 0x00000000
T8298 001:253.742 JLINK_ReadReg(FPS15)
T8298 001:253.746 - 0.007ms returns 0x00000000
T8298 001:253.752 JLINK_ReadReg(FPS16)
T8298 001:253.756 - 0.007ms returns 0x00000000
T8298 001:253.762 JLINK_ReadReg(FPS17)
T8298 001:253.767 - 0.007ms returns 0x00000000
T8298 001:253.772 JLINK_ReadReg(FPS18)
T8298 001:253.777 - 0.007ms returns 0x00000000
T8298 001:253.782 JLINK_ReadReg(FPS19)
T8298 001:253.787 - 0.007ms returns 0x00000000
T8298 001:253.792 JLINK_ReadReg(FPS20)
T8298 001:253.797 - 0.007ms returns 0x00000000
T8298 001:253.802 JLINK_ReadReg(FPS21)
T8298 001:253.807 - 0.007ms returns 0x00000000
T8298 001:253.813 JLINK_ReadReg(FPS22)
T8298 001:253.817 - 0.007ms returns 0x00000000
T8298 001:253.823 JLINK_ReadReg(FPS23)
T8298 001:253.827 - 0.007ms returns 0x00000000
T8298 001:253.833 JLINK_ReadReg(FPS24)
T8298 001:253.837 - 0.007ms returns 0x00000000
T8298 001:253.843 JLINK_ReadReg(FPS25)
T8298 001:253.848 - 0.007ms returns 0x00000000
T8298 001:253.853 JLINK_ReadReg(FPS26)
T8298 001:253.858 - 0.007ms returns 0x00000000
T8298 001:253.863 JLINK_ReadReg(FPS27)
T8298 001:253.868 - 0.007ms returns 0x00000000
T8298 001:253.873 JLINK_ReadReg(FPS28)
T8298 001:253.878 - 0.007ms returns 0x00000000
T8298 001:253.884 JLINK_ReadReg(FPS29)
T8298 001:253.888 - 0.007ms returns 0x00000000
T8298 001:253.894 JLINK_ReadReg(FPS30)
T8298 001:253.899 - 0.007ms returns 0x00000000
T8298 001:253.904 JLINK_ReadReg(FPS31)
T8298 001:253.909 - 0.007ms returns 0x00000000
T8298 001:253.917 JLINK_ReadMemEx(0x20000028, 0x4 Bytes, Flags = 0x02000000)
T8298 001:253.927   CPU_ReadMem(64 bytes @ 0x20000000)
T8298 001:254.673    -- Updating C cache (64 bytes @ 0x20000000)
T8298 001:254.681    -- Read from C cache (4 bytes @ 0x20000028)
T8298 001:254.687   Data:  00 00 00 00
T8298 001:254.692 - 0.777ms returns 4 (0x4)
T8964 001:254.995 JLINK_ReadMemEx(0xE000ED28, 0x4 Bytes, Flags = 0x02000000)
T8964 001:255.009   CPU_ReadMem(4 bytes @ 0xE000ED28)
T8964 001:255.381   Data:  00 00 00 00
T8964 001:255.391 - 0.398ms returns 4 (0x4)
T8964 001:257.055 JLINK_HasError()
T8964 001:257.065 JLINK_ReadMemU32(0xE0001004, 0x1 Items)
T8964 001:257.073   CPU_ReadMem(4 bytes @ 0xE0001004)
T8964 001:257.443   Data:  54 1D 00 00
T8964 001:257.451   Debug reg: DWT_CYCCNT
T8964 001:257.456 - 0.393ms returns 1 (0x1)
T8298 013:935.774 JLINK_ReadMemEx(0x080068C0, 0x2 Bytes, Flags = 0x02000000)
T8298 013:935.805   CPU_ReadMem(64 bytes @ 0x080068C0)
T8298 013:936.578    -- Updating C cache (64 bytes @ 0x080068C0)
T8298 013:936.589    -- Read from C cache (2 bytes @ 0x080068C0)
T8298 013:936.595   Data:  FA F7
T8298 013:936.601 - 0.828ms returns 2 (0x2)
T8298 013:936.607 JLINK_HasError()
T8298 013:936.613 JLINK_Step()
T8298 013:937.110    -- Read from C cache (2 bytes @ 0x080068C0)
T8298 013:937.122   CPU_ReadMem(4 bytes @ 0xE000ED18)
T8298 013:937.587   CPU_WriteMem(4 bytes @ 0xE000ED18)
T8298 013:937.989   CPU_ReadMem(4 bytes @ 0xE000ED18)
T8298 013:938.317   CPU_WriteMem(4 bytes @ 0xE000ED18)
T8298 013:938.715    -- Read from C cache (2 bytes @ 0x080068C2)
T8298 013:938.724   -- Simulated
T8298 013:938.729 - 2.118ms returns 0
T8298 013:938.737 JLINK_HasError()
T8298 013:938.742 JLINK_ReadReg(R15 (PC))
T8298 013:938.748 - 0.007ms returns 0x08001570
T8298 013:938.780 JLINK_ReadReg(XPSR)
T8298 013:938.785 - 0.007ms returns 0x21000000
T8298 013:938.793 JLINK_HasError()
T8298 013:938.797 JLINK_SetBPEx(Addr = 0x080068C0, Type = 0xFFFFFFF2)
T8298 013:938.802 - 0.007ms returns 0x00000002
T8298 013:938.806 JLINK_HasError()
T8298 013:938.811 JLINK_SetBPEx(Addr = 0x080068C4, Type = 0xFFFFFFF2)
T8298 013:938.870 - 0.064ms returns 0x00000003
T8298 013:938.877 JLINK_HasError()
T8298 013:938.882 JLINK_HasError()
T8298 013:938.886 JLINK_Go()
T8298 013:938.892   CPU_WriteMem(4 bytes @ 0xE0002000)
T8298 013:939.340   CPU_WriteMem(4 bytes @ 0xE0002000)
T8298 013:939.741   CPU_ReadMem(4 bytes @ 0xE0001000)
T8298 013:940.097   CPU_WriteMem(4 bytes @ 0xE000200C)
T8298 013:940.534   CPU_WriteMem(4 bytes @ 0xE0001004)
T8298 013:941.986 - 3.106ms
T8298 014:042.837 JLINK_HasError()
T8298 014:042.851 JLINK_IsHalted()
T8298 014:045.979 - 3.133ms returns TRUE
T8298 014:045.990 JLINK_HasError()
T8298 014:045.996 JLINK_Halt()
T8298 014:046.001 - 0.007ms returns 0x00
T8298 014:046.006 JLINK_IsHalted()
T8298 014:046.011 - 0.006ms returns TRUE
T8298 014:046.016 JLINK_IsHalted()
T8298 014:046.021 - 0.006ms returns TRUE
T8298 014:046.026 JLINK_IsHalted()
T8298 014:046.031 - 0.006ms returns TRUE
T8298 014:046.036 JLINK_HasError()
T8298 014:046.042 JLINK_ReadReg(R15 (PC))
T8298 014:046.049 - 0.009ms returns 0x080068C4
T8298 014:046.054 JLINK_ReadReg(XPSR)
T8298 014:046.059 - 0.007ms returns 0x21000000
T8298 014:046.067 JLINK_HasError()
T8298 014:046.072 JLINK_ClrBPEx(BPHandle = 0x00000002)
T8298 014:046.078 - 0.008ms returns 0x00
T8298 014:046.084 JLINK_HasError()
T8298 014:046.089 JLINK_ClrBPEx(BPHandle = 0x00000003)
T8298 014:046.094 - 0.007ms returns 0x00
T8298 014:046.099 JLINK_HasError()
T8298 014:046.105 JLINK_HasError()
T8298 014:046.110 JLINK_ReadMemU32(0xE000ED30, 0x1 Items)
T8298 014:046.119   CPU_ReadMem(4 bytes @ 0xE000ED30)
T8298 014:046.582   Data:  02 00 00 00
T8298 014:046.591 - 0.483ms returns 1 (0x1)
T8298 014:046.598 JLINK_ReadMemU32(0xE0001028, 0x1 Items)
T8298 014:046.606   CPU_ReadMem(4 bytes @ 0xE0001028)
T8298 014:046.938   Data:  00 00 00 00
T8298 014:046.947   Debug reg: DWT_FUNC[0]
T8298 014:046.953 - 0.357ms returns 1 (0x1)
T8298 014:046.960 JLINK_ReadMemU32(0xE0001038, 0x1 Items)
T8298 014:046.967   CPU_ReadMem(4 bytes @ 0xE0001038)
T8298 014:047.310   Data:  00 02 00 00
T8298 014:047.317   Debug reg: DWT_FUNC[1]
T8298 014:047.322 - 0.364ms returns 1 (0x1)
T8298 014:047.327 JLINK_ReadMemU32(0xE0001048, 0x1 Items)
T8298 014:047.333   CPU_ReadMem(4 bytes @ 0xE0001048)
T8298 014:047.699   Data:  00 00 00 00
T8298 014:047.706   Debug reg: DWT_FUNC[2]
T8298 014:047.711 - 0.385ms returns 1 (0x1)
T8298 014:047.716 JLINK_ReadMemU32(0xE0001058, 0x1 Items)
T8298 014:047.721   CPU_ReadMem(4 bytes @ 0xE0001058)
T8298 014:048.084   Data:  00 00 00 00
T8298 014:048.091   Debug reg: DWT_FUNC[3]
T8298 014:048.096 - 0.382ms returns 1 (0x1)
T8298 014:048.119 JLINK_HasError()
T8298 014:048.124 JLINK_ReadReg(R0)
T8298 014:048.129 - 0.007ms returns 0x00000000
T8298 014:048.134 JLINK_ReadReg(R1)
T8298 014:048.138 - 0.005ms returns 0x0000000F
T8298 014:048.142 JLINK_ReadReg(R2)
T8298 014:048.146 - 0.005ms returns 0xE000ED18
T8298 014:048.150 JLINK_ReadReg(R3)
T8298 014:048.154 - 0.005ms returns 0x10000000
T8298 014:048.158 JLINK_ReadReg(R4)
T8298 014:048.162 - 0.005ms returns 0x00000000
T8298 014:048.166 JLINK_ReadReg(R5)
T8298 014:048.170 - 0.005ms returns 0x20001CB8
T8298 014:048.174 JLINK_ReadReg(R6)
T8298 014:048.178 - 0.005ms returns 0x00000000
T8298 014:048.182 JLINK_ReadReg(R7)
T8298 014:048.186 - 0.005ms returns 0x00000000
T8298 014:048.190 JLINK_ReadReg(R8)
T8298 014:048.194 - 0.005ms returns 0x00000000
T8298 014:048.198 JLINK_ReadReg(R9)
T8298 014:048.202 - 0.005ms returns 0x00000000
T8298 014:048.206 JLINK_ReadReg(R10)
T8298 014:048.210 - 0.005ms returns 0x080089A0
T8298 014:048.214 JLINK_ReadReg(R11)
T8298 014:048.218 - 0.005ms returns 0x00000000
T8298 014:048.222 JLINK_ReadReg(R12)
T8298 014:048.226 - 0.005ms returns 0x20001CF8
T8298 014:048.230 JLINK_ReadReg(R13 (SP))
T8298 014:048.234 - 0.005ms returns 0x20002318
T8298 014:048.238 JLINK_ReadReg(R14)
T8298 014:048.242 - 0.005ms returns 0x0800176D
T8298 014:048.246 JLINK_ReadReg(R15 (PC))
T8298 014:048.250 - 0.005ms returns 0x080068C4
T8298 014:048.297 JLINK_ReadReg(XPSR)
T8298 014:048.304 - 0.008ms returns 0x21000000
T8298 014:048.308 JLINK_ReadReg(MSP)
T8298 014:048.312 - 0.005ms returns 0x20002318
T8298 014:048.316 JLINK_ReadReg(PSP)
T8298 014:048.320 - 0.005ms returns 0x00000000
T8298 014:048.324 JLINK_ReadReg(CFBP)
T8298 014:048.328 - 0.005ms returns 0x04000000
T8298 014:048.332 JLINK_ReadReg(FPSCR)
T8298 014:052.768 - 4.441ms returns 0x03000000
T8298 014:052.778 JLINK_ReadReg(FPS0)
T8298 014:052.784 - 0.008ms returns 0x00000000
T8298 014:052.790 JLINK_ReadReg(FPS1)
T8298 014:052.795 - 0.007ms returns 0x00000000
T8298 014:052.801 JLINK_ReadReg(FPS2)
T8298 014:052.805 - 0.007ms returns 0x00000000
T8298 014:052.811 JLINK_ReadReg(FPS3)
T8298 014:052.816 - 0.007ms returns 0x00000000
T8298 014:052.821 JLINK_ReadReg(FPS4)
T8298 014:052.826 - 0.007ms returns 0x00000000
T8298 014:052.831 JLINK_ReadReg(FPS5)
T8298 014:052.836 - 0.007ms returns 0x00000000
T8298 014:052.841 JLINK_ReadReg(FPS6)
T8298 014:052.846 - 0.007ms returns 0x00000000
T8298 014:052.852 JLINK_ReadReg(FPS7)
T8298 014:052.856 - 0.007ms returns 0x00000000
T8298 014:052.862 JLINK_ReadReg(FPS8)
T8298 014:052.867 - 0.007ms returns 0x00000000
T8298 014:052.872 JLINK_ReadReg(FPS9)
T8298 014:052.877 - 0.007ms returns 0x00000000
T8298 014:052.882 JLINK_ReadReg(FPS10)
T8298 014:052.887 - 0.007ms returns 0x00000000
T8298 014:052.895 JLINK_ReadReg(FPS11)
T8298 014:052.900 - 0.007ms returns 0x00000000
T8298 014:052.906 JLINK_ReadReg(FPS12)
T8298 014:052.911 - 0.007ms returns 0x00000000
T8298 014:052.916 JLINK_ReadReg(FPS13)
T8298 014:052.921 - 0.007ms returns 0x00000000
T8298 014:052.926 JLINK_ReadReg(FPS14)
T8298 014:052.931 - 0.007ms returns 0x00000000
T8298 014:052.936 JLINK_ReadReg(FPS15)
T8298 014:052.941 - 0.007ms returns 0x00000000
T8298 014:052.946 JLINK_ReadReg(FPS16)
T8298 014:052.951 - 0.007ms returns 0x00000000
T8298 014:052.957 JLINK_ReadReg(FPS17)
T8298 014:052.961 - 0.007ms returns 0x00000000
T8298 014:052.967 JLINK_ReadReg(FPS18)
T8298 014:052.971 - 0.007ms returns 0x00000000
T8298 014:052.977 JLINK_ReadReg(FPS19)
T8298 014:052.981 - 0.007ms returns 0x00000000
T8298 014:052.987 JLINK_ReadReg(FPS20)
T8298 014:052.992 - 0.007ms returns 0x00000000
T8298 014:052.997 JLINK_ReadReg(FPS21)
T8298 014:053.002 - 0.007ms returns 0x00000000
T8298 014:053.007 JLINK_ReadReg(FPS22)
T8298 014:053.012 - 0.007ms returns 0x00000000
T8298 014:053.017 JLINK_ReadReg(FPS23)
T8298 014:053.022 - 0.007ms returns 0x00000000
T8298 014:053.027 JLINK_ReadReg(FPS24)
T8298 014:053.032 - 0.007ms returns 0x00000000
T8298 014:053.038 JLINK_ReadReg(FPS25)
T8298 014:053.042 - 0.007ms returns 0x00000000
T8298 014:053.048 JLINK_ReadReg(FPS26)
T8298 014:053.053 - 0.007ms returns 0x00000000
T8298 014:053.058 JLINK_ReadReg(FPS27)
T8298 014:053.063 - 0.007ms returns 0x00000000
T8298 014:053.068 JLINK_ReadReg(FPS28)
T8298 014:053.073 - 0.007ms returns 0x00000000
T8298 014:053.078 JLINK_ReadReg(FPS29)
T8298 014:053.083 - 0.007ms returns 0x00000000
T8298 014:053.089 JLINK_ReadReg(FPS30)
T8298 014:053.093 - 0.007ms returns 0x00000000
T8298 014:053.099 JLINK_ReadReg(FPS31)
T8298 014:053.103 - 0.007ms returns 0x00000000
T8298 014:053.112 JLINK_ReadMemEx(0x20000028, 0x4 Bytes, Flags = 0x02000000)
T8298 014:053.121   CPU_ReadMem(64 bytes @ 0x20000000)
T8298 014:053.923    -- Updating C cache (64 bytes @ 0x20000000)
T8298 014:053.931    -- Read from C cache (4 bytes @ 0x20000028)
T8298 014:053.937   Data:  00 00 00 00
T8298 014:053.942 - 0.832ms returns 4 (0x4)
T8964 014:054.078 JLINK_ReadMemEx(0xE000ED28, 0x4 Bytes, Flags = 0x02000000)
T8964 014:054.098   CPU_ReadMem(4 bytes @ 0xE000ED28)
T8964 014:054.444   Data:  00 00 00 00
T8964 014:054.452 - 0.376ms returns 4 (0x4)
T8964 014:054.467 JLINK_HasError()
T8964 014:054.472 JLINK_ReadMemU32(0xE0001004, 0x1 Items)
T8964 014:054.479   CPU_ReadMem(4 bytes @ 0xE0001004)
T8964 014:054.836   Data:  D3 20 00 00
T8964 014:054.843   Debug reg: DWT_CYCCNT
T8964 014:054.848 - 0.378ms returns 1 (0x1)
T8298 032:501.844 JLINK_ReadMemEx(0x080068C4, 0x2 Bytes, Flags = 0x02000000)
T8298 032:501.876   CPU_ReadMem(64 bytes @ 0x080068C0)
T8298 032:502.743    -- Updating C cache (64 bytes @ 0x080068C0)
T8298 032:502.756    -- Read from C cache (2 bytes @ 0x080068C4)
T8298 032:502.764   Data:  FE F7
T8298 032:502.771 - 0.929ms returns 2 (0x2)
T8298 032:502.780 JLINK_HasError()
T8298 032:502.786 JLINK_SetBPEx(Addr = 0x08003714, Type = 0xFFFFFFF2)
T8298 032:502.794 - 0.010ms returns 0x00000004
T8298 032:502.800 JLINK_HasError()
T8298 032:502.805 JLINK_HasError()
T8298 032:502.811 JLINK_Go()
T8298 032:503.217   CPU_WriteMem(4 bytes @ 0xE0002000)
T8298 032:503.771   CPU_ReadMem(4 bytes @ 0xE0001000)
T8298 032:504.209   CPU_WriteMem(4 bytes @ 0xE0002008)
T8298 032:504.223   CPU_WriteMem(4 bytes @ 0xE000200C)
T8298 032:505.311 - 2.511ms
T8298 032:605.432 JLINK_HasError()
T8298 032:605.446 JLINK_IsHalted()
T8298 032:608.853 - 3.413ms returns TRUE
T8298 032:608.864 JLINK_HasError()
T8298 032:608.870 JLINK_Halt()
T8298 032:608.875 - 0.007ms returns 0x00
T8298 032:608.880 JLINK_IsHalted()
T8298 032:608.885 - 0.007ms returns TRUE
T8298 032:608.891 JLINK_IsHalted()
T8298 032:608.895 - 0.006ms returns TRUE
T8298 032:608.900 JLINK_IsHalted()
T8298 032:608.905 - 0.006ms returns TRUE
T8298 032:608.911 JLINK_HasError()
T8298 032:608.917 JLINK_ReadReg(R15 (PC))
T8298 032:608.923 - 0.009ms returns 0x08003714
T8298 032:608.929 JLINK_ReadReg(XPSR)
T8298 032:608.934 - 0.007ms returns 0x61000000
T8298 032:608.942 JLINK_HasError()
T8298 032:608.947 JLINK_ClrBPEx(BPHandle = 0x00000004)
T8298 032:608.953 - 0.008ms returns 0x00
T8298 032:608.958 JLINK_HasError()
T8298 032:608.963 JLINK_HasError()
T8298 032:608.969 JLINK_ReadMemU32(0xE000ED30, 0x1 Items)
T8298 032:608.979   CPU_ReadMem(4 bytes @ 0xE000ED30)
T8298 032:609.471   Data:  02 00 00 00
T8298 032:609.485 - 0.519ms returns 1 (0x1)
T8298 032:609.494 JLINK_ReadMemU32(0xE0001028, 0x1 Items)
T8298 032:609.504   CPU_ReadMem(4 bytes @ 0xE0001028)
T8298 032:609.966   Data:  00 00 00 00
T8298 032:609.979   Debug reg: DWT_FUNC[0]
T8298 032:609.986 - 0.494ms returns 1 (0x1)
T8298 032:609.993 JLINK_ReadMemU32(0xE0001038, 0x1 Items)
T8298 032:610.003   CPU_ReadMem(4 bytes @ 0xE0001038)
T8298 032:610.440   Data:  00 02 00 00
T8298 032:610.451   Debug reg: DWT_FUNC[1]
T8298 032:610.456 - 0.465ms returns 1 (0x1)
T8298 032:610.463 JLINK_ReadMemU32(0xE0001048, 0x1 Items)
T8298 032:610.471   CPU_ReadMem(4 bytes @ 0xE0001048)
T8298 032:610.861   Data:  00 00 00 00
T8298 032:610.868   Debug reg: DWT_FUNC[2]
T8298 032:610.873 - 0.412ms returns 1 (0x1)
T8298 032:610.879 JLINK_ReadMemU32(0xE0001058, 0x1 Items)
T8298 032:610.885   CPU_ReadMem(4 bytes @ 0xE0001058)
T8298 032:611.309   Data:  00 00 00 00
T8298 032:611.316   Debug reg: DWT_FUNC[3]
T8298 032:611.321 - 0.444ms returns 1 (0x1)
T8298 032:611.344 JLINK_HasError()
T8298 032:611.349 JLINK_ReadReg(R0)
T8298 032:611.354 - 0.007ms returns 0x00000000
T8298 032:611.359 JLINK_ReadReg(R1)
T8298 032:611.363 - 0.005ms returns 0x00000002
T8298 032:611.367 JLINK_ReadReg(R2)
T8298 032:611.371 - 0.005ms returns 0x00000000
T8298 032:611.375 JLINK_ReadReg(R3)
T8298 032:611.379 - 0.005ms returns 0x01FFFFFF
T8298 032:611.383 JLINK_ReadReg(R4)
T8298 032:611.387 - 0.005ms returns 0x00000000
T8298 032:611.391 JLINK_ReadReg(R5)
T8298 032:611.395 - 0.005ms returns 0x20001CB8
T8298 032:611.399 JLINK_ReadReg(R6)
T8298 032:611.403 - 0.005ms returns 0x00000000
T8298 032:611.407 JLINK_ReadReg(R7)
T8298 032:611.411 - 0.005ms returns 0x00000000
T8298 032:611.415 JLINK_ReadReg(R8)
T8298 032:611.419 - 0.005ms returns 0x00000000
T8298 032:611.423 JLINK_ReadReg(R9)
T8298 032:611.427 - 0.005ms returns 0x00000000
T8298 032:611.431 JLINK_ReadReg(R10)
T8298 032:611.435 - 0.005ms returns 0x080089A0
T8298 032:611.439 JLINK_ReadReg(R11)
T8298 032:611.443 - 0.005ms returns 0x00000000
T8298 032:611.447 JLINK_ReadReg(R12)
T8298 032:611.451 - 0.005ms returns 0x00000000
T8298 032:611.455 JLINK_ReadReg(R13 (SP))
T8298 032:611.459 - 0.008ms returns 0x20002318
T8298 032:611.468 JLINK_ReadReg(R14)
T8298 032:611.472 - 0.005ms returns 0x080068E1
T8298 032:611.476 JLINK_ReadReg(R15 (PC))
T8298 032:611.480 - 0.005ms returns 0x08003714
T8298 032:611.484 JLINK_ReadReg(XPSR)
T8298 032:611.488 - 0.005ms returns 0x61000000
T8298 032:611.492 JLINK_ReadReg(MSP)
T8298 032:611.496 - 0.005ms returns 0x20002318
T8298 032:611.500 JLINK_ReadReg(PSP)
T8298 032:611.504 - 0.005ms returns 0x00000000
T8298 032:611.508 JLINK_ReadReg(CFBP)
T8298 032:611.512 - 0.005ms returns 0x04000000
T8298 032:611.516 JLINK_ReadReg(FPSCR)
T8298 032:616.066 - 4.555ms returns 0x03000000
T8298 032:616.076 JLINK_ReadReg(FPS0)
T8298 032:616.083 - 0.009ms returns 0x00000000
T8298 032:616.088 JLINK_ReadReg(FPS1)
T8298 032:616.093 - 0.007ms returns 0x00000000
T8298 032:616.099 JLINK_ReadReg(FPS2)
T8298 032:616.104 - 0.007ms returns 0x00000000
T8298 032:616.109 JLINK_ReadReg(FPS3)
T8298 032:616.114 - 0.007ms returns 0x00000000
T8298 032:616.119 JLINK_ReadReg(FPS4)
T8298 032:616.124 - 0.007ms returns 0x00000000
T8298 032:616.130 JLINK_ReadReg(FPS5)
T8298 032:616.134 - 0.007ms returns 0x00000000
T8298 032:616.140 JLINK_ReadReg(FPS6)
T8298 032:616.145 - 0.007ms returns 0x00000000
T8298 032:616.150 JLINK_ReadReg(FPS7)
T8298 032:616.155 - 0.007ms returns 0x00000000
T8298 032:616.160 JLINK_ReadReg(FPS8)
T8298 032:616.165 - 0.007ms returns 0x00000000
T8298 032:616.170 JLINK_ReadReg(FPS9)
T8298 032:616.175 - 0.007ms returns 0x00000000
T8298 032:616.181 JLINK_ReadReg(FPS10)
T8298 032:616.185 - 0.007ms returns 0x00000000
T8298 032:616.191 JLINK_ReadReg(FPS11)
T8298 032:616.196 - 0.007ms returns 0x00000000
T8298 032:616.201 JLINK_ReadReg(FPS12)
T8298 032:616.206 - 0.007ms returns 0x00000000
T8298 032:616.211 JLINK_ReadReg(FPS13)
T8298 032:616.216 - 0.007ms returns 0x00000000
T8298 032:616.221 JLINK_ReadReg(FPS14)
T8298 032:616.226 - 0.007ms returns 0x00000000
T8298 032:616.235 JLINK_ReadReg(FPS15)
T8298 032:616.240 - 0.007ms returns 0x00000000
T8298 032:616.245 JLINK_ReadReg(FPS16)
T8298 032:616.250 - 0.007ms returns 0x00000000
T8298 032:616.256 JLINK_ReadReg(FPS17)
T8298 032:616.260 - 0.007ms returns 0x00000000
T8298 032:616.266 JLINK_ReadReg(FPS18)
T8298 032:616.270 - 0.007ms returns 0x00000000
T8298 032:616.276 JLINK_ReadReg(FPS19)
T8298 032:616.281 - 0.007ms returns 0x00000000
T8298 032:616.286 JLINK_ReadReg(FPS20)
T8298 032:616.291 - 0.007ms returns 0x00000000
T8298 032:616.296 JLINK_ReadReg(FPS21)
T8298 032:616.301 - 0.007ms returns 0x00000000
T8298 032:616.306 JLINK_ReadReg(FPS22)
T8298 032:616.311 - 0.007ms returns 0x00000000
T8298 032:616.316 JLINK_ReadReg(FPS23)
T8298 032:616.321 - 0.007ms returns 0x00000000
T8298 032:616.327 JLINK_ReadReg(FPS24)
T8298 032:616.331 - 0.007ms returns 0x00000000
T8298 032:616.337 JLINK_ReadReg(FPS25)
T8298 032:616.341 - 0.007ms returns 0x00000000
T8298 032:616.347 JLINK_ReadReg(FPS26)
T8298 032:616.352 - 0.007ms returns 0x00000000
T8298 032:616.357 JLINK_ReadReg(FPS27)
T8298 032:616.362 - 0.007ms returns 0x00000000
T8298 032:616.367 JLINK_ReadReg(FPS28)
T8298 032:616.372 - 0.007ms returns 0x00000000
T8298 032:616.377 JLINK_ReadReg(FPS29)
T8298 032:616.382 - 0.007ms returns 0x00000000
T8298 032:616.387 JLINK_ReadReg(FPS30)
T8298 032:616.392 - 0.007ms returns 0x00000000
T8298 032:616.397 JLINK_ReadReg(FPS31)
T8298 032:616.402 - 0.007ms returns 0x00000000
T8298 032:616.410 JLINK_ReadMemEx(0x20000028, 0x4 Bytes, Flags = 0x02000000)
T8298 032:616.420   CPU_ReadMem(64 bytes @ 0x20000000)
T8298 032:617.169    -- Updating C cache (64 bytes @ 0x20000000)
T8298 032:617.176    -- Read from C cache (4 bytes @ 0x20000028)
T8298 032:617.182   Data:  00 00 00 00
T8298 032:617.187 - 0.778ms returns 4 (0x4)
T8964 032:620.295 JLINK_HasError()
T8964 032:620.306 JLINK_ReadMemU32(0xE0001004, 0x1 Items)
T8964 032:620.314   CPU_ReadMem(4 bytes @ 0xE0001004)
T8964 032:620.685   Data:  C3 32 00 00
T8964 032:620.693   Debug reg: DWT_CYCCNT
T8964 032:620.698 - 0.394ms returns 1 (0x1)
T8964 032:620.804 JLINK_ReadMemEx(0x08003714, 0x3C Bytes, Flags = 0x02000000)
T8964 032:620.815   CPU_ReadMem(128 bytes @ 0x08003700)
T8964 032:621.896    -- Updating C cache (128 bytes @ 0x08003700)
T8964 032:621.903    -- Read from C cache (60 bytes @ 0x08003714)
T8964 032:621.909   Data:  2D E9 F0 43 87 B0 04 46 0F 46 4F F0 00 09 01 26 ...
T8964 032:621.915 - 1.113ms returns 60 (0x3C)
T8964 032:621.920 JLINK_ReadMemEx(0x08003714, 0x2 Bytes, Flags = 0x02000000)
T8964 032:621.925    -- Read from C cache (2 bytes @ 0x08003714)
T8964 032:621.930   Data:  2D E9
T8964 032:621.935 - 0.017ms returns 2 (0x2)
T8964 032:621.940 JLINK_ReadMemEx(0x08003716, 0x2 Bytes, Flags = 0x02000000)
T8964 032:621.944    -- Read from C cache (2 bytes @ 0x08003716)
T8964 032:621.950   Data:  F0 43
T8964 032:621.955 - 0.016ms returns 2 (0x2)
T8964 032:621.964 JLINK_ReadMemEx(0x08003718, 0x3C Bytes, Flags = 0x02000000)
T8964 032:621.968    -- Read from C cache (60 bytes @ 0x08003718)
T8964 032:621.974   Data:  87 B0 04 46 0F 46 4F F0 00 09 01 26 00 25 24 B1 ...
T8964 032:621.979 - 0.017ms returns 60 (0x3C)
T8964 032:621.983 JLINK_ReadMemEx(0x08003718, 0x2 Bytes, Flags = 0x02000000)
T8964 032:621.987    -- Read from C cache (2 bytes @ 0x08003718)
T8964 032:621.993   Data:  87 B0
T8964 032:621.998 - 0.016ms returns 2 (0x2)
T8964 032:622.002 JLINK_ReadMemEx(0x0800371A, 0x2 Bytes, Flags = 0x02000000)
T8964 032:622.006    -- Read from C cache (2 bytes @ 0x0800371A)
T8964 032:622.012   Data:  04 46
T8964 032:622.017 - 0.016ms returns 2 (0x2)
T8964 032:622.023 JLINK_ReadMemEx(0x0800371A, 0x2 Bytes, Flags = 0x02000000)
T8964 032:622.027    -- Read from C cache (2 bytes @ 0x0800371A)
T8964 032:622.033   Data:  04 46
T8964 032:622.038 - 0.016ms returns 2 (0x2)
T8964 032:622.042 JLINK_ReadMemEx(0x0800371C, 0x3C Bytes, Flags = 0x02000000)
T8964 032:622.046    -- Read from C cache (60 bytes @ 0x0800371C)
T8964 032:622.052   Data:  0F 46 4F F0 00 09 01 26 00 25 24 B1 01 2C 2B D0 ...
T8964 032:622.057 - 0.016ms returns 60 (0x3C)
T8964 032:622.061 JLINK_ReadMemEx(0x0800371C, 0x2 Bytes, Flags = 0x02000000)
T8964 032:622.065    -- Read from C cache (2 bytes @ 0x0800371C)
T8964 032:622.071   Data:  0F 46
T8964 032:622.076 - 0.016ms returns 2 (0x2)
T8964 032:622.082 JLINK_ReadMemEx(0x0800371C, 0x3C Bytes, Flags = 0x02000000)
T8964 032:622.086    -- Read from C cache (60 bytes @ 0x0800371C)
T8964 032:622.091   Data:  0F 46 4F F0 00 09 01 26 00 25 24 B1 01 2C 2B D0 ...
T8964 032:622.097 - 0.016ms returns 60 (0x3C)
T8964 032:622.101 JLINK_ReadMemEx(0x0800371C, 0x2 Bytes, Flags = 0x02000000)
T8964 032:622.105    -- Read from C cache (2 bytes @ 0x0800371C)
T8964 032:622.110   Data:  0F 46
T8964 032:622.115 - 0.016ms returns 2 (0x2)
T8964 032:622.119 JLINK_ReadMemEx(0x0800371E, 0x2 Bytes, Flags = 0x02000000)
T8964 032:622.123    -- Read from C cache (2 bytes @ 0x0800371E)
T8964 032:622.128   Data:  4F F0
T8964 032:622.133 - 0.016ms returns 2 (0x2)
T8298 035:353.705 JLINK_ReadMemEx(0x08003714, 0x2 Bytes, Flags = 0x02000000)
T8298 035:353.727    -- Read from C cache (2 bytes @ 0x08003714)
T8298 035:353.735   Data:  2D E9
T8298 035:353.743 - 0.040ms returns 2 (0x2)
T8298 035:353.749 JLINK_HasError()
T8298 035:353.757 JLINK_Step()
T8298 035:354.304    -- Read from C cache (2 bytes @ 0x08003714)
T8298 035:354.318    -- Read from C cache (2 bytes @ 0x08003716)
T8298 035:354.326   -- Not simulated
T8298 035:354.342   CPU_WriteMem(4 bytes @ 0xE0002008)
T8298 035:358.219 - 4.473ms returns 0
T8298 035:358.237 JLINK_HasError()
T8298 035:358.245 JLINK_ReadReg(R15 (PC))
T8298 035:358.253 - 0.010ms returns 0x08003718
T8298 035:358.258 JLINK_ReadReg(XPSR)
T8298 035:358.264 - 0.007ms returns 0x61000000
T8298 035:358.273 JLINK_HasError()
T8298 035:358.279 JLINK_SetBPEx(Addr = 0x080068E0, Type = 0xFFFFFFF2)
T8298 035:358.285 - 0.008ms returns 0x00000005
T8298 035:358.291 JLINK_HasError()
T8298 035:358.296 JLINK_SetBPEx(Addr = 0x08003714, Type = 0xFFFFFFF2)
T8298 035:358.301 - 0.007ms returns 0x00000006
T8298 035:358.307 JLINK_HasError()
T8298 035:358.315 JLINK_HasError()
T8298 035:358.323 JLINK_Go()
T8298 035:358.333   CPU_WriteMem(4 bytes @ 0xE0002000)
T8298 035:358.736   CPU_WriteMem(4 bytes @ 0xE0002000)
T8298 035:359.079   CPU_ReadMem(4 bytes @ 0xE0001000)
T8298 035:359.448   CPU_WriteMem(4 bytes @ 0xE0002008)
T8298 035:359.458   CPU_WriteMem(4 bytes @ 0xE000200C)
T8298 035:360.543 - 2.224ms
T8298 035:460.566 JLINK_HasError()
T8298 035:460.579 JLINK_IsHalted()
T8298 035:463.491 - 2.917ms returns TRUE
T8298 035:463.501 JLINK_HasError()
T8298 035:463.507 JLINK_Halt()
T8298 035:463.512 - 0.007ms returns 0x00
T8298 035:463.518 JLINK_IsHalted()
T8298 035:463.522 - 0.006ms returns TRUE
T8298 035:463.528 JLINK_IsHalted()
T8298 035:463.532 - 0.006ms returns TRUE
T8298 035:463.538 JLINK_IsHalted()
T8298 035:463.542 - 0.006ms returns TRUE
T8298 035:463.548 JLINK_HasError()
T8298 035:463.553 JLINK_ReadReg(R15 (PC))
T8298 035:463.559 - 0.008ms returns 0x080068E0
T8298 035:463.564 JLINK_ReadReg(XPSR)
T8298 035:463.570 - 0.007ms returns 0x61000000
T8298 035:463.576 JLINK_HasError()
T8298 035:463.582 JLINK_ClrBPEx(BPHandle = 0x00000005)
T8298 035:463.587 - 0.007ms returns 0x00
T8298 035:463.592 JLINK_HasError()
T8298 035:463.598 JLINK_ClrBPEx(BPHandle = 0x00000006)
T8298 035:463.602 - 0.007ms returns 0x00
T8298 035:463.608 JLINK_HasError()
T8298 035:463.613 JLINK_HasError()
T8298 035:463.618 JLINK_ReadMemU32(0xE000ED30, 0x1 Items)
T8298 035:463.627   CPU_ReadMem(4 bytes @ 0xE000ED30)
T8298 035:464.062   Data:  02 00 00 00
T8298 035:464.071 - 0.454ms returns 1 (0x1)
T8298 035:464.077 JLINK_ReadMemU32(0xE0001028, 0x1 Items)
T8298 035:464.085   CPU_ReadMem(4 bytes @ 0xE0001028)
T8298 035:464.446   Data:  00 00 00 00
T8298 035:464.454   Debug reg: DWT_FUNC[0]
T8298 035:464.461 - 0.385ms returns 1 (0x1)
T8298 035:464.467 JLINK_ReadMemU32(0xE0001038, 0x1 Items)
T8298 035:464.474   CPU_ReadMem(4 bytes @ 0xE0001038)
T8298 035:464.834   Data:  00 02 00 00
T8298 035:464.840   Debug reg: DWT_FUNC[1]
T8298 035:464.846 - 0.380ms returns 1 (0x1)
T8298 035:464.851 JLINK_ReadMemU32(0xE0001048, 0x1 Items)
T8298 035:464.856   CPU_ReadMem(4 bytes @ 0xE0001048)
T8298 035:465.293   Data:  00 00 00 00
T8298 035:465.299   Debug reg: DWT_FUNC[2]
T8298 035:465.304 - 0.455ms returns 1 (0x1)
T8298 035:465.309 JLINK_ReadMemU32(0xE0001058, 0x1 Items)
T8298 035:465.314   CPU_ReadMem(4 bytes @ 0xE0001058)
T8298 035:465.684   Data:  00 00 00 00
T8298 035:465.691   Debug reg: DWT_FUNC[3]
T8298 035:465.696 - 0.389ms returns 1 (0x1)
T8298 035:465.719 JLINK_HasError()
T8298 035:465.724 JLINK_ReadReg(R0)
T8298 035:465.728 - 0.006ms returns 0x00000000
T8298 035:465.733 JLINK_ReadReg(R1)
T8298 035:465.737 - 0.005ms returns 0x200022C0
T8298 035:465.741 JLINK_ReadReg(R2)
T8298 035:465.745 - 0.005ms returns 0x00000001
T8298 035:465.749 JLINK_ReadReg(R3)
T8298 035:465.753 - 0.005ms returns 0x00000040
T8298 035:465.757 JLINK_ReadReg(R4)
T8298 035:465.761 - 0.005ms returns 0x00000000
T8298 035:465.765 JLINK_ReadReg(R5)
T8298 035:465.769 - 0.005ms returns 0x20001CB8
T8298 035:465.773 JLINK_ReadReg(R6)
T8298 035:465.777 - 0.005ms returns 0x00000000
T8298 035:465.781 JLINK_ReadReg(R7)
T8298 035:465.785 - 0.005ms returns 0x00000000
T8298 035:465.789 JLINK_ReadReg(R8)
T8298 035:465.793 - 0.005ms returns 0x00000000
T8298 035:465.797 JLINK_ReadReg(R9)
T8298 035:465.801 - 0.005ms returns 0x00000000
T8298 035:465.805 JLINK_ReadReg(R10)
T8298 035:465.809 - 0.005ms returns 0x080089A0
T8298 035:465.813 JLINK_ReadReg(R11)
T8298 035:465.817 - 0.005ms returns 0x00000000
T8298 035:465.821 JLINK_ReadReg(R12)
T8298 035:465.825 - 0.005ms returns 0x08000765
T8298 035:465.829 JLINK_ReadReg(R13 (SP))
T8298 035:465.833 - 0.005ms returns 0x20002318
T8298 035:465.837 JLINK_ReadReg(R14)
T8298 035:465.840 - 0.005ms returns 0x08003683
T8298 035:465.845 JLINK_ReadReg(R15 (PC))
T8298 035:465.849 - 0.005ms returns 0x080068E0
T8298 035:465.853 JLINK_ReadReg(XPSR)
T8298 035:465.857 - 0.005ms returns 0x61000000
T8298 035:465.861 JLINK_ReadReg(MSP)
T8298 035:465.867 - 0.009ms returns 0x20002318
T8298 035:465.872 JLINK_ReadReg(PSP)
T8298 035:465.876 - 0.005ms returns 0x00000000
T8298 035:465.880 JLINK_ReadReg(CFBP)
T8298 035:465.884 - 0.005ms returns 0x04000000
T8298 035:465.888 JLINK_ReadReg(FPSCR)
T8298 035:470.410 - 4.529ms returns 0x03000000
T8298 035:470.423 JLINK_ReadReg(FPS0)
T8298 035:470.429 - 0.009ms returns 0x00000000
T8298 035:470.435 JLINK_ReadReg(FPS1)
T8298 035:470.440 - 0.007ms returns 0x00000000
T8298 035:470.446 JLINK_ReadReg(FPS2)
T8298 035:470.451 - 0.007ms returns 0x00000000
T8298 035:470.456 JLINK_ReadReg(FPS3)
T8298 035:470.461 - 0.007ms returns 0x00000000
T8298 035:470.466 JLINK_ReadReg(FPS4)
T8298 035:470.471 - 0.007ms returns 0x00000000
T8298 035:470.476 JLINK_ReadReg(FPS5)
T8298 035:470.481 - 0.007ms returns 0x00000000
T8298 035:470.486 JLINK_ReadReg(FPS6)
T8298 035:470.491 - 0.007ms returns 0x00000000
T8298 035:470.497 JLINK_ReadReg(FPS7)
T8298 035:470.501 - 0.007ms returns 0x00000000
T8298 035:470.507 JLINK_ReadReg(FPS8)
T8298 035:470.511 - 0.007ms returns 0x00000000
T8298 035:470.517 JLINK_ReadReg(FPS9)
T8298 035:470.522 - 0.007ms returns 0x00000000
T8298 035:470.527 JLINK_ReadReg(FPS10)
T8298 035:470.532 - 0.007ms returns 0x00000000
T8298 035:470.537 JLINK_ReadReg(FPS11)
T8298 035:470.542 - 0.007ms returns 0x00000000
T8298 035:470.547 JLINK_ReadReg(FPS12)
T8298 035:470.552 - 0.007ms returns 0x00000000
T8298 035:470.557 JLINK_ReadReg(FPS13)
T8298 035:470.562 - 0.007ms returns 0x00000000
T8298 035:470.567 JLINK_ReadReg(FPS14)
T8298 035:470.572 - 0.007ms returns 0x00000000
T8298 035:470.577 JLINK_ReadReg(FPS15)
T8298 035:470.582 - 0.007ms returns 0x00000000
T8298 035:470.587 JLINK_ReadReg(FPS16)
T8298 035:470.592 - 0.007ms returns 0x00000000
T8298 035:470.598 JLINK_ReadReg(FPS17)
T8298 035:470.602 - 0.007ms returns 0x00000000
